1



                                 *********************************************

                                    NUMERICAL ELECTROMAGNETICS CODE (NEC-2D)

                                 *********************************************




                                     - - - - COMMENTS - - - -


                          SEM52SL Antenna -- short                                                   
                                                                                                     
                                                                                                     
                                                                                                     
                                                                                                     
                          forw: 0, 0 ; back: 0, 180                                                  
                                                                                                     




                                 - - - STRUCTURE SPECIFICATION - - -

                                     COORDINATES MUST BE INPUT IN
                                     METERS OR BE SCALED TO METERS
                                     BEFORE STRUCTURE INPUT IS ENDED


  WIRE                                                                               NO. OF    FIRST  LAST     TAG
  NO.        X1         Y1         Z1          X2         Y2         Z2      RADIUS   SEG.     SEG.   SEG.     NO.
     1    0.00000    0.00000    0.00000     0.00000    0.00000    0.40000    0.00010      9        1     9       1

   GROUND PLANE SPECIFIED.

   WHERE WIRE ENDS TOUCH GROUND, CURRENT WILL BE INTERPOLATED TO IMAGE IN GROUND PLANE.


   TOTAL SEGMENTS USED=    9     NO. SEG. IN A SYMMETRIC CELL=    9     SYMMETRY FLAG=  0


         - MULTIPLE WIRE JUNCTIONS -
 JUNCTION    SEGMENTS  (- FOR END 1, + FOR END 2)
  NONE




                                 - - - - SEGMENTATION DATA - - - -

                                        COORDINATES IN METERS

                         I+ AND I- INDICATE THE SEGMENTS BEFORE AND AFTER I


  SEG.   COORDINATES OF SEG. CENTER     SEG.     ORIENTATION ANGLES    WIRE    CONNECTION DATA   TAG
  NO.       X         Y         Z       LENGTH     ALPHA     BETA      RADIUS    I-   I    I+    NO.
     1   0.00000   0.00000   0.02222   0.04444   90.00000   0.00000   0.00010     1    1    2      1
     2   0.00000   0.00000   0.06667   0.04444   90.00000   0.00000   0.00010     1    2    3      1
     3   0.00000   0.00000   0.11111   0.04444   90.00000   0.00000   0.00010     2    3    4      1
     4   0.00000   0.00000   0.15556   0.04444   90.00000   0.00000   0.00010     3    4    5      1
     5   0.00000   0.00000   0.20000   0.04444   90.00000   0.00000   0.00010     4    5    6      1
     6   0.00000   0.00000   0.24444   0.04444   90.00000   0.00000   0.00010     5    6    7      1
     7   0.00000   0.00000   0.28889   0.04444   90.00000   0.00000   0.00010     6    7    8      1
     8   0.00000   0.00000   0.33333   0.04444   90.00000   0.00000   0.00010     7    8    9      1
     9   0.00000   0.00000   0.37778   0.04444   90.00000   0.00000   0.00010     8    9    0      1






 ***** DATA CARD NO.  1   LD   4     1     9     9  5.00000E+01  0.00000E+00  0.00000E+00  0.00000E+00  0.00000E+00  0.00000E+00
 ***** DATA CARD NO.  2   GN   0     0     0     0  4.00000E+00  3.00000E-03  0.00000E+00  0.00000E+00  0.00000E+00  0.00000E+00
 ***** DATA CARD NO.  3   EK   0     0     0     0  0.00000E+00  0.00000E+00  0.00000E+00  0.00000E+00  0.00000E+00  0.00000E+00
 ***** DATA CARD NO.  4   EX   0     1     1     0  1.00000E+00  0.00000E+00  0.00000E+00  0.00000E+00  0.00000E+00  0.00000E+00
 ***** DATA CARD NO.  5   FR   0     1     0     0  3.00000E+01  0.00000E+00  0.00000E+00  0.00000E+00  0.00000E+00  0.00000E+00
 ***** DATA CARD NO.  6   XQ   0     0     0     0  0.00000E+00  0.00000E+00  0.00000E+00  0.00000E+00  0.00000E+00  0.00000E+00




                                 - - - - - - FREQUENCY - - - - - -

                                    FREQUENCY= 3.0000E+01 MHZ
                                    WAVELENGTH= 9.9933E+00 METERS




                    APPROXIMATE INTEGRATION EMPLOYED FOR SEGMENTS MORE THAN   1.000 WAVELENGTHS APART

                    THE EXTENDED THIN WIRE KERNEL WILL BE USED



                               - - - STRUCTURE IMPEDANCE LOADING - - -


       LOCATION          RESISTANCE   INDUCTANCE  CAPACITANCE       IMPEDANCE (OHMS)     CONDUCTIVITY    TYPE
    ITAG FROM THRU          OHMS        HENRYS       FARADS        REAL      IMAGINARY    MHOS/METER

       1    9    9                                             5.0000E+01                             FIXED IMPEDANCE 



                                  - - - ANTENNA ENVIRONMENT - - -

                                        FINITE GROUND.  REFLECTION COEFFICIENT APPROXIMATION
                                        RELATIVE DIELECTRIC CONST.=  4.000
                                        CONDUCTIVITY= 3.000E-03 MHOS/METER
                                        COMPLEX DIELECTRIC CONSTANT= 4.00000E+00-1.79760E+00



                                - - - MATRIX TIMING - - -

                        FILL=    0.000 SEC.,  FACTOR=    0.000 SEC.



                                          - - - ANTENNA INPUT PARAMETERS - - -

   TAG   SEG.    VOLTAGE (VOLTS)         CURRENT (AMPS)         IMPEDANCE (OHMS)        ADMITTANCE (MHOS)      POWER
   NO.   NO.    REAL        IMAG.       REAL        IMAG.       REAL        IMAG.       REAL        IMAG.     (WATTS)
     1     1 1.00000E+00 0.00000E+00 1.81040E-05 2.01254E-04 4.43390E+02-4.92896E+03 1.81040E-05 2.01254E-04 9.05202E-06



                             - - - CURRENTS AND LOCATION - - -

                                 DISTANCES IN WAVELENGTHS


  SEG.  TAG    COORD. OF SEG. CENTER     SEG.            - - - CURRENT (AMPS) - - -
  NO.   NO.     X        Y        Z      LENGTH     REAL        IMAG.       MAG.        PHASE
     1    1   0.0000   0.0000   0.0022  0.00445   1.8104E-05  2.0125E-04  2.0207E-04   84.860
     2    1   0.0000   0.0000   0.0067  0.00445   1.6246E-05  1.7338E-04  1.7414E-04   84.647
     3    1   0.0000   0.0000   0.0111  0.00445   1.4125E-05  1.4731E-04  1.4798E-04   84.523
     4    1   0.0000   0.0000   0.0156  0.00445   1.2018E-05  1.2389E-04  1.2447E-04   84.459
     5    1   0.0000   0.0000   0.0200  0.00445   9.9209E-06  1.0150E-04  1.0198E-04   84.417
     6    1   0.0000   0.0000   0.0245  0.00445   7.8221E-06  7.9575E-05  7.9958E-05   84.386
     7    1   0.0000   0.0000   0.0289  0.00445   5.7080E-06  5.7780E-05  5.8061E-05   84.358
     8    1   0.0000   0.0000   0.0334  0.00445   3.5567E-06  3.5793E-05  3.5969E-05   84.325
     9    1   0.0000   0.0000   0.0378  0.00445   1.2858E-06  1.2793E-05  1.2857E-05   84.260



                                        - - - POWER BUDGET - - -

                                           INPUT POWER   = 9.0520E-06 WATTS
                                           RADIATED POWER= 9.0479E-06 WATTS
                                           STRUCTURE LOSS= 4.1326E-09 WATTS
                                           NETWORK LOSS  = 0.0000E+00 WATTS
                                           EFFICIENCY    =  99.95 PERCENT






 ***** DATA CARD NO.  7   FR   0    11     0     0  3.00000E+01  6.00000E+00  0.00000E+00  0.00000E+00  0.00000E+00  0.00000E+00
 ***** DATA CARD NO.  8   RP   0    19    37  1000 -9.00000E+01  0.00000E+00  1.00000E+01  1.00000E+01  0.00000E+00  0.00000E+00




                                 - - - - - - FREQUENCY - - - - - -

                                    FREQUENCY= 3.0000E+01 MHZ
                                    WAVELENGTH= 9.9933E+00 METERS




                    APPROXIMATE INTEGRATION EMPLOYED FOR SEGMENTS MORE THAN   1.000 WAVELENGTHS APART

                    THE EXTENDED THIN WIRE KERNEL WILL BE USED



                               - - - STRUCTURE IMPEDANCE LOADING - - -


       LOCATION          RESISTANCE   INDUCTANCE  CAPACITANCE       IMPEDANCE (OHMS)     CONDUCTIVITY    TYPE
    ITAG FROM THRU          OHMS        HENRYS       FARADS        REAL      IMAGINARY    MHOS/METER

       1    9    9                                             5.0000E+01                             FIXED IMPEDANCE 



                                  - - - ANTENNA ENVIRONMENT - - -

                                        FINITE GROUND.  REFLECTION COEFFICIENT APPROXIMATION
                                        RELATIVE DIELECTRIC CONST.=  4.000
                                        CONDUCTIVITY= 3.000E-03 MHOS/METER
                                        COMPLEX DIELECTRIC CONSTANT= 4.00000E+00-1.79760E+00



                                - - - MATRIX TIMING - - -

                        FILL=    0.000 SEC.,  FACTOR=    0.000 SEC.



                                          - - - ANTENNA INPUT PARAMETERS - - -

   TAG   SEG.    VOLTAGE (VOLTS)         CURRENT (AMPS)         IMPEDANCE (OHMS)        ADMITTANCE (MHOS)      POWER
   NO.   NO.    REAL        IMAG.       REAL        IMAG.       REAL        IMAG.       REAL        IMAG.     (WATTS)
     1     1 1.00000E+00 0.00000E+00 1.81040E-05 2.01254E-04 4.43390E+02-4.92896E+03 1.81040E-05 2.01254E-04 9.05202E-06



                             - - - CURRENTS AND LOCATION - - -

                                 DISTANCES IN WAVELENGTHS


  SEG.  TAG    COORD. OF SEG. CENTER     SEG.            - - - CURRENT (AMPS) - - -
  NO.   NO.     X        Y        Z      LENGTH     REAL        IMAG.       MAG.        PHASE
     1    1   0.0000   0.0000   0.0022  0.00445   1.8104E-05  2.0125E-04  2.0207E-04   84.860
     2    1   0.0000   0.0000   0.0067  0.00445   1.6246E-05  1.7338E-04  1.7414E-04   84.647
     3    1   0.0000   0.0000   0.0111  0.00445   1.4125E-05  1.4731E-04  1.4798E-04   84.523
     4    1   0.0000   0.0000   0.0156  0.00445   1.2018E-05  1.2389E-04  1.2447E-04   84.459
     5    1   0.0000   0.0000   0.0200  0.00445   9.9209E-06  1.0150E-04  1.0198E-04   84.417
     6    1   0.0000   0.0000   0.0245  0.00445   7.8221E-06  7.9575E-05  7.9958E-05   84.386
     7    1   0.0000   0.0000   0.0289  0.00445   5.7080E-06  5.7780E-05  5.8061E-05   84.358
     8    1   0.0000   0.0000   0.0334  0.00445   3.5567E-06  3.5793E-05  3.5969E-05   84.325
     9    1   0.0000   0.0000   0.0378  0.00445   1.2858E-06  1.2793E-05  1.2857E-05   84.260



                                        - - - POWER BUDGET - - -

                                           INPUT POWER   = 9.0520E-06 WATTS
                                           RADIATED POWER= 9.0479E-06 WATTS
                                           STRUCTURE LOSS= 4.1326E-09 WATTS
                                           NETWORK LOSS  = 0.0000E+00 WATTS
                                           EFFICIENCY    =  99.95 PERCENT



                                                - - - RADIATION PATTERNS - - -

  - - ANGLES - -           - POWER GAINS -       - - - POLARIZATION - - -    - - - E(THETA) - - -    - - - E(PHI) - - -
  THETA     PHI        VERT.   HOR.    TOTAL      AXIAL     TILT   SENSE     MAGNITUDE    PHASE      MAGNITUDE    PHASE 
 DEGREES  DEGREES       DB      DB      DB        RATIO     DEG.              VOLTS/M    DEGREES      VOLTS/M    DEGREES
  -90.00     0.00    -999.99 -999.99 -999.99    0.00000     0.00            1.86865E-14   167.86    0.00000E+00     0.00
  -80.00     0.00     -34.38 -999.99  -34.38    0.00000     0.00  LINEAR    4.44789E-04    -9.70    0.00000E+00     0.00
  -70.00     0.00     -31.10 -999.99  -31.10    0.00000     0.00  LINEAR    6.49338E-04    -8.52    0.00000E+00     0.00
  -60.00     0.00     -30.19 -999.99  -30.19    0.00000     0.00  LINEAR    7.20795E-04    -7.89    0.00000E+00     0.00
  -50.00     0.00     -30.38 -999.99  -30.38    0.00000     0.00  LINEAR    7.05315E-04    -7.54    0.00000E+00     0.00
  -40.00     0.00     -31.38 -999.99  -31.38    0.00000     0.00  LINEAR    6.28405E-04    -7.33    0.00000E+00     0.00
  -30.00     0.00     -33.24 -999.99  -33.24    0.00000     0.00  LINEAR    5.07140E-04    -7.20    0.00000E+00     0.00
  -20.00     0.00     -36.35 -999.99  -36.35    0.00000     0.00  LINEAR    3.54683E-04    -7.13    0.00000E+00     0.00
  -10.00     0.00     -42.13 -999.99  -42.13    0.00000     0.00  LINEAR    1.82234E-04    -7.09    0.00000E+00     0.00
    0.00     0.00    -999.99 -999.99 -999.99    0.00000     0.00            0.00000E+00     0.00    0.00000E+00     0.00
   10.00     0.00     -42.13 -999.99  -42.13    0.00000     0.00  LINEAR    1.82234E-04   172.91    0.00000E+00     0.00
   20.00     0.00     -36.35 -999.99  -36.35    0.00000     0.00  LINEAR    3.54683E-04   172.87    0.00000E+00     0.00
   30.00     0.00     -33.24 -999.99  -33.24    0.00000     0.00  LINEAR    5.07140E-04   172.80    0.00000E+00     0.00
   40.00     0.00     -31.38 -999.99  -31.38    0.00000     0.00  LINEAR    6.28405E-04   172.67    0.00000E+00     0.00
   50.00     0.00     -30.38 -999.99  -30.38    0.00000     0.00  LINEAR    7.05315E-04   172.46    0.00000E+00     0.00
   60.00     0.00     -30.19 -999.99  -30.19    0.00000     0.00  LINEAR    7.20795E-04   172.11    0.00000E+00     0.00
   70.00     0.00     -31.10 -999.99  -31.10    0.00000     0.00  LINEAR    6.49338E-04   171.48    0.00000E+00     0.00
   80.00     0.00     -34.38 -999.99  -34.38    0.00000     0.00  LINEAR    4.44789E-04   170.30    0.00000E+00     0.00
   90.00     0.00    -999.99 -999.99 -999.99    0.00000     0.00            1.86865E-14   -12.14    0.00000E+00     0.00
  -90.00    10.00    -999.99 -999.99 -999.99    0.00000     0.00            1.86865E-14   167.86    0.00000E+00     0.00
  -80.00    10.00     -34.38 -999.99  -34.38    0.00000     0.00  LINEAR    4.44789E-04    -9.70    0.00000E+00     0.00
  -70.00    10.00     -31.10 -999.99  -31.10    0.00000     0.00  LINEAR    6.49338E-04    -8.52    0.00000E+00     0.00
  -60.00    10.00     -30.19 -999.99  -30.19    0.00000     0.00  LINEAR    7.20795E-04    -7.89    0.00000E+00     0.00
  -50.00    10.00     -30.38 -999.99  -30.38    0.00000     0.00  LINEAR    7.05315E-04    -7.54    0.00000E+00     0.00
  -40.00    10.00     -31.38 -999.99  -31.38    0.00000     0.00  LINEAR    6.28405E-04    -7.33    0.00000E+00     0.00
  -30.00    10.00     -33.24 -999.99  -33.24    0.00000     0.00  LINEAR    5.07140E-04    -7.20    0.00000E+00     0.00
  -20.00    10.00     -36.35 -999.99  -36.35    0.00000     0.00  LINEAR    3.54683E-04    -7.13    0.00000E+00     0.00
  -10.00    10.00     -42.13 -999.99  -42.13    0.00000     0.00  LINEAR    1.82234E-04    -7.09    0.00000E+00     0.00
    0.00    10.00    -999.99 -999.99 -999.99    0.00000     0.00            0.00000E+00     0.00    0.00000E+00     0.00
   10.00    10.00     -42.13 -999.99  -42.13    0.00000     0.00  LINEAR    1.82234E-04   172.91    0.00000E+00     0.00
   20.00    10.00     -36.35 -999.99  -36.35    0.00000     0.00  LINEAR    3.54683E-04   172.87    0.00000E+00     0.00
   30.00    10.00     -33.24 -999.99  -33.24    0.00000     0.00  LINEAR    5.07140E-04   172.80    0.00000E+00     0.00
   40.00    10.00     -31.38 -999.99  -31.38    0.00000     0.00  LINEAR    6.28405E-04   172.67    0.00000E+00     0.00
   50.00    10.00     -30.38 -999.99  -30.38    0.00000     0.00  LINEAR    7.05315E-04   172.46    0.00000E+00     0.00
   60.00    10.00     -30.19 -999.99  -30.19    0.00000     0.00  LINEAR    7.20795E-04   172.11    0.00000E+00     0.00
   70.00    10.00     -31.10 -999.99  -31.10    0.00000     0.00  LINEAR    6.49338E-04   171.48    0.00000E+00     0.00
   80.00    10.00     -34.38 -999.99  -34.38    0.00000     0.00  LINEAR    4.44789E-04   170.30    0.00000E+00     0.00
   90.00    10.00    -999.99 -999.99 -999.99    0.00000     0.00            1.86865E-14   -12.14    0.00000E+00     0.00
  -90.00    20.00    -999.99 -999.99 -999.99    0.00000     0.00            1.86865E-14   167.86    0.00000E+00     0.00
  -80.00    20.00     -34.38 -999.99  -34.38    0.00000     0.00  LINEAR    4.44789E-04    -9.70    0.00000E+00     0.00
  -70.00    20.00     -31.10 -999.99  -31.10    0.00000     0.00  LINEAR    6.49338E-04    -8.52    0.00000E+00     0.00
  -60.00    20.00     -30.19 -999.99  -30.19    0.00000     0.00  LINEAR    7.20795E-04    -7.89    0.00000E+00     0.00
  -50.00    20.00     -30.38 -999.99  -30.38    0.00000     0.00  LINEAR    7.05315E-04    -7.54    0.00000E+00     0.00
  -40.00    20.00     -31.38 -999.99  -31.38    0.00000     0.00  LINEAR    6.28405E-04    -7.33    0.00000E+00     0.00
  -30.00    20.00     -33.24 -999.99  -33.24    0.00000     0.00  LINEAR    5.07140E-04    -7.20    0.00000E+00     0.00
  -20.00    20.00     -36.35 -999.99  -36.35    0.00000     0.00  LINEAR    3.54683E-04    -7.13    0.00000E+00     0.00
  -10.00    20.00     -42.13 -999.99  -42.13    0.00000     0.00  LINEAR    1.82234E-04    -7.09    0.00000E+00     0.00
    0.00    20.00    -999.99 -999.99 -999.99    0.00000     0.00            0.00000E+00     0.00    0.00000E+00     0.00
   10.00    20.00     -42.13 -999.99  -42.13    0.00000     0.00  LINEAR    1.82234E-04   172.91    0.00000E+00     0.00
   20.00    20.00     -36.35 -999.99  -36.35    0.00000     0.00  LINEAR    3.54683E-04   172.87    0.00000E+00     0.00
   30.00    20.00     -33.24 -999.99  -33.24    0.00000     0.00  LINEAR    5.07140E-04   172.80    0.00000E+00     0.00
   40.00    20.00     -31.38 -999.99  -31.38    0.00000     0.00  LINEAR    6.28405E-04   172.67    0.00000E+00     0.00
   50.00    20.00     -30.38 -999.99  -30.38    0.00000     0.00  LINEAR    7.05315E-04   172.46    0.00000E+00     0.00
   60.00    20.00     -30.19 -999.99  -30.19    0.00000     0.00  LINEAR    7.20795E-04   172.11    0.00000E+00     0.00
   70.00    20.00     -31.10 -999.99  -31.10    0.00000     0.00  LINEAR    6.49338E-04   171.48    0.00000E+00     0.00
   80.00    20.00     -34.38 -999.99  -34.38    0.00000     0.00  LINEAR    4.44789E-04   170.30    0.00000E+00     0.00
   90.00    20.00    -999.99 -999.99 -999.99    0.00000     0.00            1.86865E-14   -12.14    0.00000E+00     0.00
  -90.00    30.00    -999.99 -999.99 -999.99    0.00000     0.00            1.86865E-14   167.86    0.00000E+00     0.00
  -80.00    30.00     -34.38 -999.99  -34.38    0.00000     0.00  LINEAR    4.44789E-04    -9.70    0.00000E+00     0.00
  -70.00    30.00     -31.10 -999.99  -31.10    0.00000     0.00  LINEAR    6.49338E-04    -8.52    0.00000E+00     0.00
  -60.00    30.00     -30.19 -999.99  -30.19    0.00000     0.00  LINEAR    7.20795E-04    -7.89    0.00000E+00     0.00
  -50.00    30.00     -30.38 -999.99  -30.38    0.00000     0.00  LINEAR    7.05315E-04    -7.54    0.00000E+00     0.00
  -40.00    30.00     -31.38 -999.99  -31.38    0.00000     0.00  LINEAR    6.28405E-04    -7.33    0.00000E+00     0.00
  -30.00    30.00     -33.24 -999.99  -33.24    0.00000     0.00  LINEAR    5.07140E-04    -7.20    0.00000E+00     0.00
  -20.00    30.00     -36.35 -999.99  -36.35    0.00000     0.00  LINEAR    3.54683E-04    -7.13    0.00000E+00     0.00
  -10.00    30.00     -42.13 -999.99  -42.13    0.00000     0.00  LINEAR    1.82234E-04    -7.09    0.00000E+00     0.00
    0.00    30.00    -999.99 -999.99 -999.99    0.00000     0.00            0.00000E+00     0.00    0.00000E+00     0.00
   10.00    30.00     -42.13 -999.99  -42.13    0.00000     0.00  LINEAR    1.82234E-04   172.91    0.00000E+00     0.00
   20.00    30.00     -36.35 -999.99  -36.35    0.00000     0.00  LINEAR    3.54683E-04   172.87    0.00000E+00     0.00
   30.00    30.00     -33.24 -999.99  -33.24    0.00000     0.00  LINEAR    5.07140E-04   172.80    0.00000E+00     0.00
